! frequency   re(S11)  im(S11)
!
# Hz  S RI R 50
!
300000.000000   -0.053558  0.940582
303473.000000   -0.041534  0.940186
306987.000000   -0.029480  0.939819
310542.000000   -0.018158  0.939362
314138.000000   -0.006836  0.938934
317776.000000   0.004089  0.938263
321455.000000   0.014984  0.937775
325177.000000   0.026001  0.936890
328943.000000   0.036896  0.936096
332752.000000   0.047455  0.934998
336605.000000   0.058075  0.933746
340503.000000   0.068817  0.932678
344445.000000   0.079163  0.931305
348434.000000   0.089813  0.929993
352469.000000   0.100281  0.928589
356550.000000   0.110962  0.926605
360679.000000   0.121063  0.924866
364855.000000   0.131317  0.923309
369080.000000   0.141632  0.921356
373354.000000   0.151581  0.919067
377677.000000   0.161957  0.917084
382051.000000   0.172119  0.914734
386474.000000   0.181824  0.912720
390950.000000   0.191925  0.910339
395477.000000   0.201660  0.907715
400056.000000   0.211731  0.905090
404688.000000   0.221191  0.902222
409375.000000   0.231049  0.899475
414115.000000   0.240784  0.896545
418910.000000   0.250244  0.893616
423761.000000   0.259735  0.890503
428668.000000   0.269104  0.887390
433631.000000   0.278442  0.884521
438652.000000   0.287933  0.880890
443732.000000   0.297272  0.877594
448870.000000   0.306305  0.874115
454068.000000   0.315552  0.870514
459326.000000   0.324829  0.866730
464644.000000   0.333527  0.863312
470025.000000   0.342438  0.859253
475467.000000   0.351105  0.855774
480973.000000   0.360168  0.851746
486542.000000   0.368408  0.847595
492176.000000   0.377258  0.843445
497876.000000   0.385803  0.839355
503641.000000   0.394165  0.835083
509473.000000   0.402405  0.830994
515372.000000   0.410706  0.826599
521340.000000   0.418823  0.822144
527377.000000   0.427002  0.817566
533484.000000   0.435059  0.813354
539661.000000   0.442932  0.808777
545910.000000   0.450775  0.804169
552231.000000   0.458649  0.799347
558626.000000   0.466064  0.794861
565094.000000   0.473816  0.790131
571638.000000   0.481232  0.785126
578257.000000   0.488739  0.780182
584953.000000   0.496277  0.775635
591726.000000   0.503387  0.770355
598578.000000   0.510376  0.765594
605509.000000   0.517578  0.760590
612521.000000   0.524567  0.755249
619613.000000   0.531433  0.750244
626788.000000   0.538208  0.745239
634046.000000   0.544800  0.740051
641388.000000   0.551636  0.734680
648815.000000   0.558044  0.729553
656328.000000   0.564819  0.724182
663927.000000   0.570740  0.719116
671615.000000   0.577148  0.713623
679392.000000   0.583191  0.708374
687259.000000   0.589417  0.702881
695218.000000   0.595276  0.697327
703268.000000   0.601074  0.692078
711411.000000   0.607117  0.686401
719649.000000   0.612671  0.681213
727982.000000   0.618408  0.675781
736412.000000   0.623779  0.670044
744939.000000   0.629517  0.664612
753565.000000   0.634644  0.659241
762291.000000   0.639954  0.653748
771118.000000   0.645081  0.648071
780048.000000   0.650208  0.642456
789080.000000   0.655029  0.637024
798217.000000   0.660034  0.631470
807460.000000   0.665039  0.625977
816810.000000   0.669556  0.620361
826268.000000   0.674316  0.614990
835835.000000   0.678772  0.609558
845514.000000   0.683167  0.603943
855305.000000   0.687439  0.598450
865209.000000   0.691772  0.592773
875227.000000   0.695740  0.587341
885362.000000   0.699890  0.581970
895614.000000   0.703918  0.576477
905984.000000   0.708008  0.570984
916475.000000   0.711731  0.565552
927088.000000   0.715393  0.560181
937823.000000   0.719238  0.554871
948682.000000   0.722717  0.549255
959668.000000   0.726440  0.544006
970780.000000   0.729736  0.538635
982021.000000   0.733093  0.533386
993393.000000   0.736389  0.528198
1004896.000000   0.739502  0.522888
1016532.000000   0.742432  0.517517
1028303.000000   0.745667  0.512390
1040210.000000   0.748657  0.507263
1052255.000000   0.751587  0.502258
1064440.000000   0.754333  0.497009
1076765.000000   0.757080  0.491882
1089234.000000   0.759888  0.486877
1101847.000000   0.762451  0.481873
1114605.000000   0.764893  0.476807
1127512.000000   0.767517  0.471985
1140568.000000   0.769958  0.467102
1153775.000000   0.772339  0.462219
1167135.000000   0.774475  0.457397
1180650.000000   0.776794  0.452637
1194321.000000   0.778992  0.447937
1208150.000000   0.781250  0.443176
1222140.000000   0.783264  0.438599
1236292.000000   0.785156  0.433960
1250607.000000   0.787170  0.429504
1265088.000000   0.789185  0.424927
1279737.000000   0.791016  0.420410
1294556.000000   0.792908  0.416016
1309546.000000   0.794739  0.411560
1324709.000000   0.796387  0.407288
1340049.000000   0.798157  0.402832
1355566.000000   0.799866  0.398743
1371263.000000   0.801392  0.394531
1387142.000000   0.802979  0.390198
1403204.000000   0.804504  0.386230
1419453.000000   0.806030  0.382202
1435889.000000   0.807434  0.378052
1452516.000000   0.808960  0.374084
1469335.000000   0.810364  0.370056
1486349.000000   0.811646  0.366211
1503561.000000   0.812866  0.362305
1520971.000000   0.814270  0.358459
1538583.000000   0.815491  0.354736
1556400.000000   0.816711  0.351013
1574422.000000   0.817993  0.347229
1592654.000000   0.819031  0.343628
1611095.000000   0.820190  0.340088
1629750.000000   0.821350  0.336365
1648622.000000   0.822449  0.332886
1667712.000000   0.823547  0.329407
1687022.000000   0.824524  0.325867
1706558.000000   0.825562  0.322632
1726319.000000   0.826538  0.319153
1746308.000000   0.827637  0.315796
1766530.000000   0.828491  0.312561
1786985.000000   0.829346  0.309387
1807677.000000   0.830322  0.306091
1828609.000000   0.831299  0.302917
1849783.000000   0.832092  0.299927
1871203.000000   0.833008  0.296753
1892870.000000   0.833862  0.293701
1914789.000000   0.834534  0.290649
1936961.000000   0.835449  0.287842
1959390.000000   0.836182  0.284729
1982079.000000   0.836853  0.281860
2005031.000000   0.837830  0.278992
2028248.000000   0.838562  0.276184
2051734.000000   0.839233  0.273438
2075492.000000   0.839966  0.270691
2099525.000000   0.840637  0.267883
2123836.000000   0.841370  0.265198
2148429.000000   0.842102  0.262512
2173307.000000   0.842712  0.259888
2198473.000000   0.843323  0.257385
2223930.000000   0.844055  0.254761
2249682.000000   0.844727  0.252319
2275732.000000   0.845398  0.249878
2302084.000000   0.845886  0.247437
2328740.000000   0.846558  0.245056
2355706.000000   0.847290  0.242676
2382983.000000   0.847839  0.240234
2410577.000000   0.848389  0.237976
2438490.000000   0.848938  0.235535
2466726.000000   0.849548  0.233398
2495290.000000   0.850220  0.231262
2524183.000000   0.850586  0.228943
2553412.000000   0.851379  0.226868
2582979.000000   0.851929  0.224670
2612888.000000   0.852539  0.222534
2643143.000000   0.852966  0.220520
2673750.000000   0.853577  0.218445
2704710.000000   0.854187  0.216370
2736029.000000   0.854675  0.214355
2767711.000000   0.855225  0.212341
2799760.000000   0.855774  0.210388
2832180.000000   0.856384  0.208496
2864975.000000   0.856812  0.206604
2898151.000000   0.857483  0.204712
2931710.000000   0.857971  0.202820
2965656.000000   0.858459  0.200989
2999998.000000   0.858948  0.199219
3034737.000000   0.859497  0.197327
3069877.000000   0.860107  0.195618
3105426.000000   0.860596  0.193970
3141384.000000   0.861084  0.192139
3177761.000000   0.861694  0.190369
3214557.000000   0.862183  0.188782
3251781.000000   0.862732  0.187012
3289433.000000   0.863281  0.185425
3327522.000000   0.863708  0.183716
3366051.000000   0.864380  0.182129
3405032.000000   0.864807  0.180542
3444458.000000   0.865417  0.178955
3484343.000000   0.865967  0.177429
3524689.000000   0.866455  0.175842
3565503.000000   0.867004  0.174316
3606789.000000   0.867615  0.172791
3648555.000000   0.868103  0.171265
3690802.000000   0.868652  0.169800
3733540.000000   0.869141  0.168335
3776772.000000   0.869690  0.166809
3820506.000000   0.870178  0.165405
3864744.000000   0.870667  0.164001
3909497.000000   0.871155  0.162598
3954769.000000   0.871704  0.161133
4000562.000000   0.872314  0.159851
4046889.000000   0.872742  0.158447
4093748.000000   0.873352  0.157043
4141152.000000   0.873840  0.155762
4189104.000000   0.874451  0.154358
4237612.000000   0.874939  0.152954
4286679.000000   0.875427  0.151794
4336320.000000   0.875977  0.150452
4386530.000000   0.876465  0.149170
4437325.000000   0.877014  0.147888
4488705.000000   0.877502  0.146484
4540683.000000   0.878174  0.145386
4593260.000000   0.878662  0.144043
4646447.000000   0.879089  0.142761
4700251.000000   0.879639  0.141541
4754677.000000   0.880310  0.140259
4809730.000000   0.880859  0.139038
4865428.000000   0.881287  0.137878
4921764.000000   0.881836  0.136658
4978756.000000   0.882385  0.135498
5036406.000000   0.882935  0.134338
5094726.000000   0.883362  0.133057
5153720.000000   0.883972  0.131958
5213398.000000   0.884460  0.130798
5273763.000000   0.884949  0.129700
5334833.000000   0.885498  0.128540
5396606.000000   0.885925  0.127441
5459098.000000   0.886536  0.126221
5522310.000000   0.887024  0.125183
5586253.000000   0.887451  0.124023
5650942.000000   0.888062  0.122925
5716375.000000   0.888550  0.121704
5782571.000000   0.889038  0.120728
5849528.000000   0.889587  0.119568
5917264.000000   0.890076  0.118591
5985782.000000   0.890564  0.117371
6055097.000000   0.891052  0.116394
6125210.000000   0.891479  0.115295
6196140.000000   0.892029  0.114258
6267885.000000   0.892517  0.113220
6340467.000000   0.893005  0.112122
6413883.000000   0.893372  0.111145
6488154.000000   0.893921  0.110046
6563283.000000   0.894348  0.109009
6639281.000000   0.894836  0.107971
6716158.000000   0.895325  0.107056
6793935.000000   0.895813  0.105957
6872600.000000   0.896362  0.104919
6952181.000000   0.896729  0.103943
7032680.000000   0.897156  0.102966
7114111.000000   0.897644  0.101929
7196487.000000   0.898132  0.100891
7279821.000000   0.898560  0.099915
7364115.000000   0.899048  0.098999
7449392.000000   0.899536  0.097961
7535648.000000   0.899902  0.096985
7622909.000000   0.900269  0.096069
7711179.000000   0.900818  0.095093
7800473.000000   0.901184  0.094177
7890796.000000   0.901672  0.093140
7982171.000000   0.902100  0.092224
8074596.000000   0.902527  0.091248
8168100.000000   0.902954  0.090393
8262686.000000   0.903320  0.089417
8358363.000000   0.903748  0.088501
8455150.000000   0.904114  0.087585
8553051.000000   0.904602  0.086609
8652096.000000   0.904968  0.085693
8752278.000000   0.905273  0.084900
8853623.000000   0.905762  0.084045
8956141.000000   0.906189  0.083069
9059850.000000   0.906616  0.082092
9164757.000000   0.906921  0.081177
9270879.000000   0.907288  0.080383
9378227.000000   0.907654  0.079407
9486827.000000   0.908142  0.078552
9596674.000000   0.908508  0.077637
9707802.000000   0.908875  0.076721
9820210.000000   0.909180  0.075867
9933923.000000   0.909607  0.075012
10048951.000000   0.909973  0.074158
10165315.000000   0.910339  0.073303
10283022.000000   0.910706  0.072510
10402096.000000   0.911133  0.071655
10522540.000000   0.911377  0.070740
10644392.000000   0.911804  0.069824
10767642.000000   0.912048  0.068970
10892333.000000   0.912476  0.068176
11018456.000000   0.912842  0.067322
11146046.000000   0.913147  0.066467
11275110.000000   0.913513  0.065613
11405667.000000   0.913818  0.064758
11537734.000000   0.914185  0.063965
11671342.000000   0.914490  0.063049
11806485.000000   0.914795  0.062256
11943204.000000   0.915100  0.061401
12081504.000000   0.915405  0.060730
12221399.000000   0.915833  0.059998
12362921.000000   0.916138  0.059021
12506073.000000   0.916443  0.058228
12650893.000000   0.916748  0.057434
12797379.000000   0.916992  0.056580
12945570.000000   0.917297  0.055786
13095465.000000   0.917664  0.054993
13247106.000000   0.917908  0.054199
13400497.000000   0.918152  0.053345
13555666.000000   0.918518  0.052551
13712636.000000   0.918823  0.051758
13871425.000000   0.919128  0.051025
14032038.000000   0.919373  0.050232
14194516.000000   0.919678  0.049377
14358878.000000   0.919983  0.048584
14525150.000000   0.920166  0.047852
14693339.000000   0.920532  0.046997
14863488.000000   0.920715  0.046204
15035593.000000   0.921082  0.045410
15209702.000000   0.921387  0.044678
15385820.000000   0.921509  0.043884
15563986.000000   0.921814  0.043030
15744205.000000   0.921997  0.042358
15926522.000000   0.922302  0.041504
16110938.000000   0.922485  0.040649
16297500.000000   0.922791  0.039917
16486213.000000   0.922974  0.039124
16677123.000000   0.923218  0.038330
16870228.000000   0.923462  0.037598
17065580.000000   0.923706  0.036743
17263199.000000   0.923950  0.036011
17463091.000000   0.924194  0.035278
17665299.000000   0.924438  0.034424
17869860.000000   0.924683  0.033691
18076772.000000   0.924927  0.032959
18286092.000000   0.925110  0.032227
18497836.000000   0.925293  0.031494
18712025.000000   0.925537  0.030640
18928705.000000   0.925781  0.029907
19147880.000000   0.925964  0.029114
19369611.000000   0.926208  0.028442
19593891.000000   0.926453  0.027527
19820783.000000   0.926636  0.026855
20050292.000000   0.926758  0.026062
20282465.000000   0.926941  0.025330
20517325.000000   0.927185  0.024536
20754905.000000   0.927429  0.023804
20995224.000000   0.927551  0.023010
21238351.000000   0.927795  0.022156
21484268.000000   0.927917  0.021484
21733057.000000   0.928162  0.020691
21984703.000000   0.928284  0.019958
22239286.000000   0.928467  0.019226
22496799.000000   0.928772  0.018433
22757296.000000   0.928955  0.017761
23020803.000000   0.929138  0.016846
23287385.000000   0.929321  0.016174
23557029.000000   0.929504  0.015442
23829826.000000   0.929626  0.014587
24105753.000000   0.929749  0.013916
24384890.000000   0.929871  0.012939
24667253.000000   0.930115  0.012268
24952894.000000   0.930298  0.011536
25241849.000000   0.930420  0.010803
25534126.000000   0.930603  0.009888
25829806.000000   0.930786  0.009155
26128889.000000   0.930969  0.008423
26431451.000000   0.931091  0.007568
26737502.000000   0.931152  0.006775
27047110.000000   0.931396  0.006042
27360307.000000   0.931458  0.005249
27677128.000000   0.931641  0.004456
27997599.000000   0.931824  0.003662
28321781.000000   0.931946  0.002930
28649742.000000   0.932068  0.002014
28981481.000000   0.932190  0.001282
29317060.000000   0.932373  0.000549
29656553.000000   0.932495  -0.000244
30000000.000000   0.932556  -0.001038
